
T2118 000:001 SEGGER J-Link V4.90 Log File (0000ms, 0001ms total)
T2118 000:001 DLL Compiled: Jul 28 2014 10:35:20 (0000ms, 0001ms total)
T2118 000:001 Logging started @ 2017-10-21 15:32 (0000ms, 0001ms total)
T2118 000:001 JLINK_SetWarnOutHandler(...) (0000ms, 0001ms total)
T2118 000:001 JLINK_OpenEx(...)
Firmware: J-Link OB-STM32F072-CortexM compiled Mar  8 2020 11:15:54
Hardware: V1.00
Feature(s): GDB, RDI, FlashBP, FlashDL, JFlash, RDDI  returns O.K. (0278ms, 0279ms total)
T2118 000:279 JLINK_GetEmuCaps()  returns 0xB8EA5A33 (0000ms, 0279ms total)
T2118 000:279 JLINK_TIF_GetAvailable(...) (0001ms, 0280ms total)
T2118 000:280 JLINK_SetErrorOutHandler(...) (0000ms, 0280ms total)
T2118 000:280 JLINK_ExecCommand("ProjectFile = "J:\PROJECT_KAFA\LQF\GD32_72M_C8T6_int_20171020\USER\JLinkSettings.ini"", ...)Device "UNSPECIFIED" selected (0 KB flash, 0 KB RAM).  returns 0x00 (0004ms, 0284ms total)
T2118 000:289 JLINK_ExecCommand("Device = GD32F103C8", ...)Device "UNSPECIFIED" selected (0 KB flash, 0 KB RAM).  returns 0x00 (0004ms, 0288ms total)
T2118 000:293 JLINK_ExecCommand("DisableConnectionTimeout", ...)  returns 0x01 (0000ms, 0288ms total)
T2118 000:293 JLINK_GetHardwareVersion()  returns 0x2710 (0000ms, 0288ms total)
T2118 000:293 JLINK_GetDLLVersion()  returns 49000 (0000ms, 0288ms total)
T2118 000:293 JLINK_GetFirmwareString(...) (0000ms, 0288ms total)
T2118 000:308 JLINK_GetDLLVersion()  returns 49000 (0000ms, 0288ms total)
T2118 000:308 JLINK_GetCompileDateTime() (0000ms, 0288ms total)
T2118 000:310 JLINK_GetFirmwareString(...) (0000ms, 0288ms total)
T2118 000:313 JLINK_GetHardwareVersion()  returns 0x2710 (0000ms, 0288ms total)
T2118 000:323 JLINK_TIF_Select(JLINKARM_TIF_SWD)  returns 0x00 (0006ms, 0294ms total)
T2118 000:329 JLINK_SetSpeed(5000) (0001ms, 0295ms total)
T2118 000:330 JLINK_GetId() >0x108 TIF>Found SWD-DP with ID 0x1BA01477 >0x0D TIF> >0x21 TIF> >0x0D TIF> >0x28 TIF> >0x0D TIF> >0x28 TIF> >0x0D TIF> >0x21 TIF> >0x0D TIF> >0x28 TIF> >0x0D TIF> >0x21 TIF> >0x0D TIF> >0x21 TIF> >0x0D TIF> >0x21 TIF> >0x0D TIF> >0x21 TIF> >0x0D TIF> >0x28 TIF> >0x0D TIF> >0x28 TIF> >0x0D TIF> >0x21 TIF> >0x0D TIF> >0x28 TIF> >0x0D TIF> >0x28 TIF> >0x0D TIF> >0x28 TIF> >0x0D TIF> >0x21 TIF> >0x0D TIF> >0x21 TIF> >0x0D TIF> >0x28 TIF> >0x0D TIF> >0x21 TIF> >0x0D TIF>
 >0x21 TIF>Found Cortex-M3 r2p1, Little endian. -- CPU_WriteMem(4 bytes @ 0xE0002000) -- CPU_ReadMem(4 bytes @ 0xE000EDF0) -- CPU_ReadMem(4 bytes @ 0xE0002000)FPUnit: 6 code (BP) slots and 2 literal slots -- CPU_ReadMem(4 bytes @ 0xE000EDFC) -- CPU_ReadMem(4 bytes @ 0xE0001000) -- CPU_WriteMem(4 bytes @ 0xE0001000) -- CPU_ReadMem(4 bytes @ 0xE00FF010)TPIU fitted. -- CPU_ReadMem(4 bytes @ 0xE00FF014) -- CPU_ReadMem(4 bytes @ 0xE00FF018) >0x0D TIF> >0x21 TIF>  returns 0x1BA01477 (0076ms, 0371ms total)
T2118 000:406 JLINK_GetDLLVersion()  returns 49000 (0000ms, 0371ms total)
T2118 000:406 JLINK_CORE_GetFound()  returns 0x30000FF (0000ms, 0371ms total)
T2118 000:410 JLINK_GetDebugInfo(0x100) -- Value=0xE00FF003  returns 0x00 (0000ms, 0371ms total)
T2118 000:410 JLINK_GetDebugInfo(0x101)  returns 0xFFFFFFFF (0000ms, 0371ms total)
T2118 000:410 JLINK_ReadMemEx(0xE0041FF0, 0x0010 Bytes, ..., AccessWidth = 33554436) -- CPU is running -- CPU_ReadMem(16 bytes @ 0xE0041FF0) - Data: 00 00 00 00 00 00 00 00 00 00 00 00 00 00 00 00  returns 0x10 (0001ms, 0372ms total)
T2118 000:411 JLINK_GetDebugInfo(0x102)  returns 0xFFFFFFFF (0001ms, 0373ms total)
T2118 000:412 JLINK_GetDebugInfo(0x103)  returns 0xFFFFFFFF (0000ms, 0373ms total)
T2118 000:412 JLINK_ReadMemEx(0xE0040FF0, 0x0010 Bytes, ..., AccessWidth = 33554436) -- CPU is running -- CPU_ReadMem(16 bytes @ 0xE0040FF0) - Data: 0D 00 00 00 90 00 00 00 05 00 00 00 B1 00 00 00  returns 0x10 (0002ms, 0375ms total)
T2118 000:414 JLINK_GetDebugInfo(0x104)  returns 0xFFFFFFFF (0000ms, 0375ms total)
T2118 000:414 JLINK_GetDebugInfo(0x105)  returns 0xFFFFFFFF (0000ms, 0375ms total)
T2118 000:414 JLINK_GetDebugInfo(0x106)  returns 0xFFFFFFFF (0000ms, 0375ms total)
T2118 000:414 JLINK_GetDebugInfo(0x107)  returns 0xFFFFFFFF (0000ms, 0375ms total)
T2118 000:414 JLINK_GetDebugInfo(0x10C)  returns 0xFFFFFFFF (0000ms, 0375ms total)
T2118 000:414 JLINK_ReadMemU32(0xE000ED00, 0x0001 Items, ...) -- CPU is running -- CPU_ReadMem(4 bytes @ 0xE000ED00) - Data: 31 C2 2F 41  returns 0x01 (0001ms, 0376ms total)
T2118 000:415 JLINK_GetDebugInfo(0x10F)  returns 0xFFFFFFFF (0000ms, 0376ms total)
T2118 000:415 JLINK_SetResetType(JLINKARM_RESET_TYPE_NORMAL)  returns JLINKARM_RESET_TYPE_NORMAL (0000ms, 0376ms total)
T2118 000:415 JLINK_Reset() -- CPU is running -- CPU_WriteMem(4 bytes @ 0xE000EDF0) -- CPU is running -- CPU_WriteMem(4 bytes @ 0xE000EDFC) >0x35 TIF> -- CPU is running -- CPU_WriteMem(4 bytes @ 0xE000ED0C) -- CPU is running -- CPU_ReadMem(4 bytes @ 0xE000EDF0) -- CPU is running -- CPU_ReadMem(4 bytes @ 0xE000EDF0) -- CPU is running -- CPU_WriteMem(4 bytes @ 0xE000EDF0) -- CPU is running -- CPU_WriteMem(4 bytes @ 0xE000EDFC) -- CPU is running -- CPU_ReadMem(4 bytes @ 0xE000EDF0)
 -- CPU_WriteMem(4 bytes @ 0xE0002000) -- CPU_ReadMem(4 bytes @ 0xE000EDFC) -- CPU_ReadMem(4 bytes @ 0xE0001000) (0027ms, 0403ms total)
T2118 000:442 JLINK_Halt()  returns 0x00 (0000ms, 0403ms total)
T2118 000:442 JLINK_ReadMemU32(0xE000EDF0, 0x0001 Items, ...) -- CPU_ReadMem(4 bytes @ 0xE000EDF0) - Data: 03 00 03 00  returns 0x01 (0002ms, 0405ms total)
T2118 000:444 JLINK_WriteU32(0xE000EDF0, 0xA05F0003) -- CPU_WriteMem(4 bytes @ 0xE000EDF0)  returns 0x00 (0002ms, 0407ms total)
T2118 000:446 JLINK_WriteU32(0xE000EDFC, 0x01000000) -- CPU_WriteMem(4 bytes @ 0xE000EDFC)  returns 0x00 (0002ms, 0409ms total)
T2118 000:462 JLINK_GetHWStatus(...)  returns 0x00 (0001ms, 0410ms total)
T2118 000:472 JLINK_GetNumBPUnits(Type = 0xFFFFFF00)  returns 0x06 (0000ms, 0410ms total)
T2118 000:472 JLINK_GetNumBPUnits(Type = 0xF0)  returns 0x2000 (0000ms, 0410ms total)
T2118 000:472 JLINK_GetNumWPUnits()  returns 0x04 (0000ms, 0410ms total)
T2118 000:480 JLINK_GetSpeed()  returns 0x7D0 (0000ms, 0410ms total)
T2118 000:485 JLINK_ReadMemU32(0xE000E004, 0x0001 Items, ...) -- CPU_ReadMem(4 bytes @ 0xE000E004) - Data: 01 00 00 00  returns 0x01 (0001ms, 0411ms total)
T2118 000:486 JLINK_ReadMemU32(0xE000E004, 0x0001 Items, ...) -- CPU_ReadMem(4 bytes @ 0xE000E004) - Data: 01 00 00 00  returns 0x01 (0001ms, 0412ms total)
T2118 000:487 JLINK_WriteMemEx(0xE0001000, 0x001C Bytes, ..., AccessWidth = 33554436) - Data: 01 00 00 00 00 00 00 00 00 00 00 00 00 00 00 00 ... -- CPU_WriteMem(28 bytes @ 0xE0001000)  returns 0x1C (0001ms, 0413ms total)
T2118 000:488 JLINK_Halt()  returns 0x00 (0000ms, 0413ms total)
T2118 000:488 JLINK_IsHalted()  returns TRUE (0000ms, 0413ms total)
T2118 000:490 JLINK_WriteMem(0x20000000, 0x013C Bytes, ...) - Data: 00 BE 0A E0 0D 78 2D 06 68 40 08 24 40 00 00 D3 ... -- CPU_WriteMem(316 bytes @ 0x20000000)  returns 0x13C (0004ms, 0417ms total)
T2118 000:494 JLINK_WriteReg(R0, 0x08000000)  returns 0x00 (0000ms, 0417ms total)
T2118 000:494 JLINK_WriteReg(R1, 0x00B71B00)  returns 0x00 (0000ms, 0417ms total)
T2118 000:494 JLINK_WriteReg(R2, 0x00000001)  returns 0x00 (0000ms, 0417ms total)
T2118 000:494 JLINK_WriteReg(R3, 0x00000000)  returns 0x00 (0000ms, 0417ms total)
T2118 000:494 JLINK_WriteReg(R4, 0x00000000)  returns 0x00 (0000ms, 0417ms total)
T2118 000:494 JLINK_WriteReg(R5, 0x00000000)  returns 0x00 (0000ms, 0417ms total)
T2118 000:494 JLINK_WriteReg(R6, 0x00000000)  returns 0x00 (0000ms, 0417ms total)
T2118 000:494 JLINK_WriteReg(R7, 0x00000000)  returns 0x00 (0000ms, 0417ms total)
T2118 000:494 JLINK_WriteReg(R8, 0x00000000)  returns 0x00 (0000ms, 0417ms total)
T2118 000:494 JLINK_WriteReg(R9, 0x20000134)  returns 0x00 (0000ms, 0417ms total)
T2118 000:494 JLINK_WriteReg(R10, 0x00000000)  returns 0x00 (0000ms, 0417ms total)
T2118 000:494 JLINK_WriteReg(R11, 0x00000000)  returns 0x00 (0000ms, 0417ms total)
T2118 000:494 JLINK_WriteReg(R12, 0x00000000)  returns 0x00 (0000ms, 0417ms total)
T2118 000:494 JLINK_WriteReg(R13 (SP), 0x20001000)  returns 0x00 (0000ms, 0417ms total)
T2118 000:494 JLINK_WriteReg(R14, 0x20000001)  returns 0x00 (0000ms, 0417ms total)
T2118 000:494 JLINK_WriteReg(R15 (PC), 0x20000038)  returns 0x00 (0000ms, 0417ms total)
T2118 000:494 JLINK_WriteReg(XPSR, 0x01000000)  returns 0x00 (0000ms, 0417ms total)
T2118 000:494 JLINK_WriteReg(MSP, 0x20001000)  returns 0x00 (0000ms, 0417ms total)
T2118 000:494 JLINK_WriteReg(PSP, 0x20001000)  returns 0x00 (0000ms, 0417ms total)
T2118 000:494 JLINK_WriteReg(CFBP, 0x00000000)  returns 0x00 (0000ms, 0417ms total)
T2118 000:494 JLINK_SetBPEx(Addr = 0x20000000, Type = 0xFFFFFFF2) -- CPU_ReadMem(4 bytes @ 0x20000000) -- CPU_WriteMem(4 bytes @ 0x20000000) -- CPU_ReadMem(4 bytes @ 0x20000000) -- CPU_WriteMem(4 bytes @ 0x20000000) -- CPU_ReadMem(2 bytes @ 0x20000000)  returns 0x00000001 (0010ms, 0427ms total)
T2118 000:504 JLINK_Go() -- CPU_WriteMem(2 bytes @ 0x20000000) -- CPU_WriteMem(4 bytes @ 0xE0002008) -- CPU_WriteMem(4 bytes @ 0xE000200C) -- CPU_WriteMem(4 bytes @ 0xE0002010) -- CPU_WriteMem(4 bytes @ 0xE0002014) -- CPU_WriteMem(4 bytes @ 0xE0002018) -- CPU_WriteMem(4 bytes @ 0xE000201C) -- CPU_WriteMem(4 bytes @ 0xE0001004) (0021ms, 0448ms total)
T2118 000:525 JLINK_IsHalted() -- CPU_ReadMem(2 bytes @ 0x20000000)  returns TRUE (0007ms, 0455ms total)
T2118 000:532 JLINK_ReadReg(R15 (PC))  returns 0x20000000 (0000ms, 0448ms total)
T2118 000:532 JLINK_ClrBPEx(BPHandle = 0x00000001)  returns 0x00 (0000ms, 0448ms total)
T2118 000:532 JLINK_ReadReg(R0)  returns 0x00000000 (0000ms, 0448ms total)
T2118 000:532 JLINK_WriteReg(R0, 0x08000000)  returns 0x00 (0000ms, 0448ms total)
T2118 000:532 JLINK_WriteReg(R1, 0x00000400)  returns 0x00 (0000ms, 0448ms total)
T2118 000:532 JLINK_WriteReg(R2, 0x000000FF)  returns 0x00 (0000ms, 0448ms total)
T2118 000:532 JLINK_WriteReg(R3, 0x00000000)  returns 0x00 (0000ms, 0448ms total)
T2118 000:532 JLINK_WriteReg(R4, 0x00000000)  returns 0x00 (0000ms, 0448ms total)
T2118 000:532 JLINK_WriteReg(R5, 0x00000000)  returns 0x00 (0000ms, 0448ms total)
T2118 000:532 JLINK_WriteReg(R6, 0x00000000)  returns 0x00 (0000ms, 0448ms total)
T2118 000:532 JLINK_WriteReg(R7, 0x00000000)  returns 0x00 (0000ms, 0448ms total)
T2118 000:532 JLINK_WriteReg(R8, 0x00000000)  returns 0x00 (0000ms, 0448ms total)
T2118 000:532 JLINK_WriteReg(R9, 0x20000134)  returns 0x00 (0000ms, 0448ms total)
T2118 000:532 JLINK_WriteReg(R10, 0x00000000)  returns 0x00 (0000ms, 0448ms total)
T2118 000:532 JLINK_WriteReg(R11, 0x00000000)  returns 0x00 (0000ms, 0448ms total)
T2118 000:532 JLINK_WriteReg(R12, 0x00000000)  returns 0x00 (0000ms, 0448ms total)
T2118 000:532 JLINK_WriteReg(R13 (SP), 0x20001000)  returns 0x00 (0000ms, 0448ms total)
T2118 000:532 JLINK_WriteReg(R14, 0x20000001)  returns 0x00 (0000ms, 0448ms total)
T2118 000:532 JLINK_WriteReg(R15 (PC), 0x20000020)  returns 0x00 (0000ms, 0448ms total)
T2118 000:532 JLINK_WriteReg(XPSR, 0x01000000)  returns 0x00 (0000ms, 0448ms total)
T2118 000:532 JLINK_WriteReg(MSP, 0x20001000)  returns 0x00 (0000ms, 0448ms total)
T2118 000:532 JLINK_WriteReg(PSP, 0x20001000)  returns 0x00 (0000ms, 0448ms total)
T2118 000:532 JLINK_WriteReg(CFBP, 0x00000000)  returns 0x00 (0000ms, 0448ms total)
T2118 000:532 JLINK_SetBPEx(Addr = 0x20000000, Type = 0xFFFFFFF2)  returns 0x00000002 (0000ms, 0448ms total)
T2118 000:532 JLINK_Go() (0003ms, 0451ms total)
T2118 000:535 JLINK_IsHalted() -- CPU_ReadMem(2 bytes @ 0x20000000)  returns TRUE (0009ms, 0460ms total)
T2118 000:544 JLINK_ReadReg(R15 (PC))  returns 0x20000000 (0000ms, 0451ms total)
T2118 000:544 JLINK_ClrBPEx(BPHandle = 0x00000002)  returns 0x00 (0000ms, 0451ms total)
T2118 000:544 JLINK_ReadReg(R0)  returns 0x00000001 (0000ms, 0451ms total)
T2118 000:544 JLINK_WriteReg(R0, 0x08000000)  returns 0x00 (0000ms, 0451ms total)
T2118 000:544 JLINK_WriteReg(R1, 0x00000400)  returns 0x00 (0000ms, 0451ms total)
T2118 000:544 JLINK_WriteReg(R2, 0x000000FF)  returns 0x00 (0000ms, 0451ms total)
T2118 000:544 JLINK_WriteReg(R3, 0x00000000)  returns 0x00 (0000ms, 0451ms total)
T2118 000:544 JLINK_WriteReg(R4, 0x00000000)  returns 0x00 (0000ms, 0451ms total)
T2118 000:544 JLINK_WriteReg(R5, 0x00000000)  returns 0x00 (0000ms, 0451ms total)
T2118 000:544 JLINK_WriteReg(R6, 0x00000000)  returns 0x00 (0000ms, 0451ms total)
T2118 000:544 JLINK_WriteReg(R7, 0x00000000)  returns 0x00 (0000ms, 0451ms total)
T2118 000:544 JLINK_WriteReg(R8, 0x00000000)  returns 0x00 (0000ms, 0451ms total)
T2118 000:544 JLINK_WriteReg(R9, 0x20000134)  returns 0x00 (0000ms, 0451ms total)
T2118 000:544 JLINK_WriteReg(R10, 0x00000000)  returns 0x00 (0000ms, 0451ms total)
T2118 000:544 JLINK_WriteReg(R11, 0x00000000)  returns 0x00 (0000ms, 0451ms total)
T2118 000:544 JLINK_WriteReg(R12, 0x00000000)  returns 0x00 (0000ms, 0451ms total)
T2118 000:544 JLINK_WriteReg(R13 (SP), 0x20001000)  returns 0x00 (0000ms, 0451ms total)
T2118 000:544 JLINK_WriteReg(R14, 0x20000001)  returns 0x00 (0000ms, 0451ms total)
T2118 000:544 JLINK_WriteReg(R15 (PC), 0x200000A8)  returns 0x00 (0000ms, 0451ms total)
T2118 000:544 JLINK_WriteReg(XPSR, 0x01000000)  returns 0x00 (0000ms, 0451ms total)
T2118 000:544 JLINK_WriteReg(MSP, 0x20001000)  returns 0x00 (0000ms, 0451ms total)
T2118 000:544 JLINK_WriteReg(PSP, 0x20001000)  returns 0x00 (0000ms, 0451ms total)
T2118 000:544 JLINK_WriteReg(CFBP, 0x00000000)  returns 0x00 (0000ms, 0451ms total)
T2118 000:544 JLINK_SetBPEx(Addr = 0x20000000, Type = 0xFFFFFFF2)  returns 0x00000003 (0000ms, 0451ms total)
T2118 000:544 JLINK_Go() (0005ms, 0456ms total)
T2118 000:549 JLINK_IsHalted()  returns FALSE (0002ms, 0458ms total)
T2118 000:566 JLINK_IsHalted()  returns FALSE (0001ms, 0457ms total)
T2118 000:568 JLINK_IsHalted()  returns FALSE (0001ms, 0457ms total)
T2118 000:570 JLINK_IsHalted()  returns FALSE (0001ms, 0457ms total)
T2118 000:572 JLINK_IsHalted()  returns FALSE (0001ms, 0457ms total)
T2118 000:574 JLINK_IsHalted()  returns FALSE (0001ms, 0457ms total)
T2118 000:576 JLINK_IsHalted()  returns FALSE (0002ms, 0458ms total)
T2118 000:579 JLINK_IsHalted()  returns FALSE (0002ms, 0458ms total)
T2118 000:582 JLINK_IsHalted()  returns FALSE (0001ms, 0457ms total)
T2118 000:584 JLINK_IsHalted()  returns FALSE (0002ms, 0458ms total)
T2118 000:587 JLINK_IsHalted()  returns FALSE (0002ms, 0458ms total)
T2118 000:590 JLINK_IsHalted()  returns FALSE (0000ms, 0456ms total)
T2118 000:591 JLINK_IsHalted()  returns FALSE (0000ms, 0456ms total)
T2118 000:592 JLINK_IsHalted() -- CPU_ReadMem(2 bytes @ 0x20000000)  returns TRUE (0009ms, 0465ms total)
T2118 000:601 JLINK_ReadReg(R15 (PC))  returns 0x20000000 (0000ms, 0456ms total)
T2118 000:601 JLINK_ClrBPEx(BPHandle = 0x00000003)  returns 0x00 (0000ms, 0456ms total)
T2118 000:601 JLINK_ReadReg(R0)  returns 0x00000000 (0000ms, 0456ms total)
T2118 000:601 JLINK_WriteReg(R0, 0x08000400)  returns 0x00 (0000ms, 0456ms total)
T2118 000:601 JLINK_WriteReg(R1, 0x00000400)  returns 0x00 (0000ms, 0456ms total)
T2118 000:601 JLINK_WriteReg(R2, 0x000000FF)  returns 0x00 (0000ms, 0456ms total)
T2118 000:601 JLINK_WriteReg(R3, 0x00000000)  returns 0x00 (0000ms, 0456ms total)
T2118 000:601 JLINK_WriteReg(R4, 0x00000000)  returns 0x00 (0000ms, 0456ms total)
T2118 000:601 JLINK_WriteReg(R5, 0x00000000)  returns 0x00 (0000ms, 0456ms total)
T2118 000:601 JLINK_WriteReg(R6, 0x00000000)  returns 0x00 (0000ms, 0456ms total)
T2118 000:601 JLINK_WriteReg(R7, 0x00000000)  returns 0x00 (0000ms, 0456ms total)
T2118 000:601 JLINK_WriteReg(R8, 0x00000000)  returns 0x00 (0000ms, 0456ms total)
T2118 000:601 JLINK_WriteReg(R9, 0x20000134)  returns 0x00 (0000ms, 0456ms total)
T2118 000:601 JLINK_WriteReg(R10, 0x00000000)  returns 0x00 (0000ms, 0456ms total)
T2118 000:601 JLINK_WriteReg(R11, 0x00000000)  returns 0x00 (0000ms, 0456ms total)
T2118 000:601 JLINK_WriteReg(R12, 0x00000000)  returns 0x00 (0000ms, 0456ms total)
T2118 000:601 JLINK_WriteReg(R13 (SP), 0x20001000)  returns 0x00 (0000ms, 0456ms total)
T2118 000:601 JLINK_WriteReg(R14, 0x20000001)  returns 0x00 (0000ms, 0456ms total)
T2118 000:601 JLINK_WriteReg(R15 (PC), 0x20000020)  returns 0x00 (0000ms, 0456ms total)
T2118 000:601 JLINK_WriteReg(XPSR, 0x01000000)  returns 0x00 (0000ms, 0456ms total)
T2118 000:601 JLINK_WriteReg(MSP, 0x20001000)  returns 0x00 (0000ms, 0456ms total)
T2118 000:601 JLINK_WriteReg(PSP, 0x20001000)  returns 0x00 (0000ms, 0456ms total)
T2118 000:601 JLINK_WriteReg(CFBP, 0x00000000)  returns 0x00 (0000ms, 0456ms total)
T2118 000:601 JLINK_SetBPEx(Addr = 0x20000000, Type = 0xFFFFFFF2)  returns 0x00000004 (0000ms, 0456ms total)
T2118 000:601 JLINK_Go() (0004ms, 0460ms total)
T2118 000:605 JLINK_IsHalted() -- CPU_ReadMem(2 bytes @ 0x20000000)  returns TRUE (0009ms, 0469ms total)
T2118 000:614 JLINK_ReadReg(R15 (PC))  returns 0x20000000 (0000ms, 0460ms total)
T2118 000:614 JLINK_ClrBPEx(BPHandle = 0x00000004)  returns 0x00 (0000ms, 0460ms total)
T2118 000:614 JLINK_ReadReg(R0)  returns 0x00000001 (0000ms, 0460ms total)
T2118 000:614 JLINK_WriteReg(R0, 0x08000400)  returns 0x00 (0000ms, 0460ms total)
T2118 000:614 JLINK_WriteReg(R1, 0x00000400)  returns 0x00 (0000ms, 0460ms total)
T2118 000:614 JLINK_WriteReg(R2, 0x000000FF)  returns 0x00 (0000ms, 0460ms total)
T2118 000:614 JLINK_WriteReg(R3, 0x00000000)  returns 0x00 (0000ms, 0460ms total)
T2118 000:614 JLINK_WriteReg(R4, 0x00000000)  returns 0x00 (0000ms, 0460ms total)
T2118 000:614 JLINK_WriteReg(R5, 0x00000000)  returns 0x00 (0000ms, 0460ms total)
T2118 000:614 JLINK_WriteReg(R6, 0x00000000)  returns 0x00 (0000ms, 0460ms total)
T2118 000:614 JLINK_WriteReg(R7, 0x00000000)  returns 0x00 (0000ms, 0460ms total)
T2118 000:614 JLINK_WriteReg(R8, 0x00000000)  returns 0x00 (0000ms, 0460ms total)
T2118 000:614 JLINK_WriteReg(R9, 0x20000134)  returns 0x00 (0000ms, 0460ms total)
T2118 000:614 JLINK_WriteReg(R10, 0x00000000)  returns 0x00 (0000ms, 0460ms total)
T2118 000:614 JLINK_WriteReg(R11, 0x00000000)  returns 0x00 (0000ms, 0460ms total)
T2118 000:614 JLINK_WriteReg(R12, 0x00000000)  returns 0x00 (0000ms, 0460ms total)
T2118 000:614 JLINK_WriteReg(R13 (SP), 0x20001000)  returns 0x00 (0000ms, 0460ms total)
T2118 000:614 JLINK_WriteReg(R14, 0x20000001)  returns 0x00 (0000ms, 0460ms total)
T2118 000:614 JLINK_WriteReg(R15 (PC), 0x200000A8)  returns 0x00 (0000ms, 0460ms total)
T2118 000:614 JLINK_WriteReg(XPSR, 0x01000000)  returns 0x00 (0000ms, 0460ms total)
T2118 000:614 JLINK_WriteReg(MSP, 0x20001000)  returns 0x00 (0000ms, 0460ms total)
T2118 000:614 JLINK_WriteReg(PSP, 0x20001000)  returns 0x00 (0000ms, 0460ms total)
T2118 000:614 JLINK_WriteReg(CFBP, 0x00000000)  returns 0x00 (0000ms, 0460ms total)
T2118 000:614 JLINK_SetBPEx(Addr = 0x20000000, Type = 0xFFFFFFF2)  returns 0x00000005 (0000ms, 0460ms total)
T2118 000:614 JLINK_Go() (0003ms, 0463ms total)
T2118 000:617 JLINK_IsHalted()  returns FALSE (0002ms, 0465ms total)
T2118 000:620 JLINK_IsHalted()  returns FALSE (0002ms, 0465ms total)
T2118 000:623 JLINK_IsHalted()  returns FALSE (0001ms, 0464ms total)
T2118 000:625 JLINK_IsHalted()  returns FALSE (0001ms, 0464ms total)
T2118 000:627 JLINK_IsHalted()  returns FALSE (0002ms, 0465ms total)
T2118 000:630 JLINK_IsHalted()  returns FALSE (0001ms, 0464ms total)
T2118 000:633 JLINK_IsHalted()  returns FALSE (0001ms, 0464ms total)
T2118 000:635 JLINK_IsHalted()  returns FALSE (0002ms, 0465ms total)
T2118 000:638 JLINK_IsHalted()  returns FALSE (0001ms, 0464ms total)
T2118 000:640 JLINK_IsHalted()  returns FALSE (0002ms, 0465ms total)
T2118 000:643 JLINK_IsHalted()  returns FALSE (0001ms, 0464ms total)
T2118 000:645 JLINK_IsHalted()  returns FALSE (0002ms, 0465ms total)
T2118 000:649 JLINK_IsHalted()  returns FALSE (0001ms, 0464ms total)
T2118 000:651 JLINK_IsHalted()  returns FALSE (0001ms, 0464ms total)
T2118 000:653 JLINK_IsHalted()  returns FALSE (0002ms, 0465ms total)
T2118 000:656 JLINK_IsHalted()  returns FALSE (0001ms, 0464ms total)
T2118 000:658 JLINK_IsHalted()  returns FALSE (0002ms, 0465ms total)
T2118 000:661 JLINK_IsHalted()  returns FALSE (0001ms, 0464ms total)
T2118 000:665 JLINK_IsHalted() -- CPU_ReadMem(2 bytes @ 0x20000000)  returns TRUE (0008ms, 0471ms total)
T2118 000:673 JLINK_ReadReg(R15 (PC))  returns 0x20000000 (0000ms, 0463ms total)
T2118 000:673 JLINK_ClrBPEx(BPHandle = 0x00000005)  returns 0x00 (0000ms, 0463ms total)
T2118 000:673 JLINK_ReadReg(R0)  returns 0x00000000 (0000ms, 0463ms total)
T2118 000:673 JLINK_WriteReg(R0, 0x08000800)  returns 0x00 (0000ms, 0463ms total)
T2118 000:673 JLINK_WriteReg(R1, 0x00000400)  returns 0x00 (0000ms, 0463ms total)
T2118 000:673 JLINK_WriteReg(R2, 0x000000FF)  returns 0x00 (0000ms, 0463ms total)
T2118 000:673 JLINK_WriteReg(R3, 0x00000000)  returns 0x00 (0000ms, 0463ms total)
T2118 000:673 JLINK_WriteReg(R4, 0x00000000)  returns 0x00 (0000ms, 0463ms total)
T2118 000:673 JLINK_WriteReg(R5, 0x00000000)  returns 0x00 (0000ms, 0463ms total)
T2118 000:673 JLINK_WriteReg(R6, 0x00000000)  returns 0x00 (0000ms, 0463ms total)
T2118 000:673 JLINK_WriteReg(R7, 0x00000000)  returns 0x00 (0000ms, 0463ms total)
T2118 000:673 JLINK_WriteReg(R8, 0x00000000)  returns 0x00 (0000ms, 0463ms total)
T2118 000:673 JLINK_WriteReg(R9, 0x20000134)  returns 0x00 (0000ms, 0463ms total)
T2118 000:673 JLINK_WriteReg(R10, 0x00000000)  returns 0x00 (0000ms, 0463ms total)
T2118 000:673 JLINK_WriteReg(R11, 0x00000000)  returns 0x00 (0000ms, 0463ms total)
T2118 000:673 JLINK_WriteReg(R12, 0x00000000)  returns 0x00 (0000ms, 0463ms total)
T2118 000:673 JLINK_WriteReg(R13 (SP), 0x20001000)  returns 0x00 (0000ms, 0463ms total)
T2118 000:673 JLINK_WriteReg(R14, 0x20000001)  returns 0x00 (0000ms, 0463ms total)
T2118 000:673 JLINK_WriteReg(R15 (PC), 0x20000020)  returns 0x00 (0000ms, 0463ms total)
T2118 000:673 JLINK_WriteReg(XPSR, 0x01000000)  returns 0x00 (0000ms, 0463ms total)
T2118 000:673 JLINK_WriteReg(MSP, 0x20001000)  returns 0x00 (0000ms, 0463ms total)
T2118 000:673 JLINK_WriteReg(PSP, 0x20001000)  returns 0x00 (0000ms, 0463ms total)
T2118 000:673 JLINK_WriteReg(CFBP, 0x00000000)  returns 0x00 (0000ms, 0463ms total)
T2118 000:673 JLINK_SetBPEx(Addr = 0x20000000, Type = 0xFFFFFFF2)  returns 0x00000006 (0000ms, 0463ms total)
T2118 000:673 JLINK_Go() (0003ms, 0466ms total)
T2118 000:676 JLINK_IsHalted() -- CPU_ReadMem(2 bytes @ 0x20000000)  returns TRUE (0008ms, 0474ms total)
T2118 000:684 JLINK_ReadReg(R15 (PC))  returns 0x20000000 (0000ms, 0466ms total)
T2118 000:684 JLINK_ClrBPEx(BPHandle = 0x00000006)  returns 0x00 (0000ms, 0466ms total)
T2118 000:684 JLINK_ReadReg(R0)  returns 0x00000001 (0000ms, 0466ms total)
T2118 000:684 JLINK_WriteReg(R0, 0x08000800)  returns 0x00 (0000ms, 0466ms total)
T2118 000:684 JLINK_WriteReg(R1, 0x00000400)  returns 0x00 (0000ms, 0466ms total)
T2118 000:684 JLINK_WriteReg(R2, 0x000000FF)  returns 0x00 (0000ms, 0466ms total)
T2118 000:684 JLINK_WriteReg(R3, 0x00000000)  returns 0x00 (0000ms, 0466ms total)
T2118 000:684 JLINK_WriteReg(R4, 0x00000000)  returns 0x00 (0000ms, 0466ms total)
T2118 000:684 JLINK_WriteReg(R5, 0x00000000)  returns 0x00 (0000ms, 0466ms total)
T2118 000:684 JLINK_WriteReg(R6, 0x00000000)  returns 0x00 (0000ms, 0466ms total)
T2118 000:684 JLINK_WriteReg(R7, 0x00000000)  returns 0x00 (0000ms, 0466ms total)
T2118 000:684 JLINK_WriteReg(R8, 0x00000000)  returns 0x00 (0000ms, 0466ms total)
T2118 000:684 JLINK_WriteReg(R9, 0x20000134)  returns 0x00 (0000ms, 0466ms total)
T2118 000:684 JLINK_WriteReg(R10, 0x00000000)  returns 0x00 (0000ms, 0466ms total)
T2118 000:684 JLINK_WriteReg(R11, 0x00000000)  returns 0x00 (0000ms, 0466ms total)
T2118 000:684 JLINK_WriteReg(R12, 0x00000000)  returns 0x00 (0000ms, 0466ms total)
T2118 000:684 JLINK_WriteReg(R13 (SP), 0x20001000)  returns 0x00 (0000ms, 0466ms total)
T2118 000:684 JLINK_WriteReg(R14, 0x20000001)  returns 0x00 (0000ms, 0466ms total)
T2118 000:684 JLINK_WriteReg(R15 (PC), 0x200000A8)  returns 0x00 (0000ms, 0466ms total)
T2118 000:684 JLINK_WriteReg(XPSR, 0x01000000)  returns 0x00 (0000ms, 0466ms total)
T2118 000:684 JLINK_WriteReg(MSP, 0x20001000)  returns 0x00 (0000ms, 0466ms total)
T2118 000:684 JLINK_WriteReg(PSP, 0x20001000)  returns 0x00 (0000ms, 0466ms total)
T2118 000:684 JLINK_WriteReg(CFBP, 0x00000000)  returns 0x00 (0000ms, 0466ms total)
T2118 000:684 JLINK_SetBPEx(Addr = 0x20000000, Type = 0xFFFFFFF2)  returns 0x00000007 (0000ms, 0466ms total)
T2118 000:684 JLINK_Go() (0004ms, 0470ms total)
T2118 000:688 JLINK_IsHalted()  returns FALSE (0003ms, 0473ms total)
T2118 000:692 JLINK_IsHalted()  returns FALSE (0001ms, 0471ms total)
T2118 000:694 JLINK_IsHalted()  returns FALSE (0002ms, 0472ms total)
T2118 000:697 JLINK_IsHalted()  returns FALSE (0002ms, 0472ms total)
T2118 000:700 JLINK_IsHalted()  returns FALSE (0002ms, 0472ms total)
T2118 000:703 JLINK_IsHalted()  returns FALSE (0002ms, 0472ms total)
T2118 000:706 JLINK_IsHalted()  returns FALSE (0001ms, 0471ms total)
T2118 000:708 JLINK_IsHalted()  returns FALSE (0001ms, 0471ms total)
T2118 000:710 JLINK_IsHalted()  returns FALSE (0002ms, 0472ms total)
T2118 000:713 JLINK_IsHalted()  returns FALSE (0001ms, 0471ms total)
T2118 000:715 JLINK_IsHalted()  returns FALSE (0002ms, 0472ms total)
T2118 000:718 JLINK_IsHalted()  returns FALSE (0001ms, 0471ms total)
T2118 000:720 JLINK_IsHalted()  returns FALSE (0002ms, 0472ms total)
T2118 000:723 JLINK_IsHalted()  returns FALSE (0001ms, 0471ms total)
T2118 000:725 JLINK_IsHalted()  returns FALSE (0000ms, 0470ms total)
T2118 000:726 JLINK_IsHalted()  returns FALSE (0000ms, 0470ms total)
T2118 000:727 JLINK_IsHalted()  returns FALSE (0000ms, 0470ms total)
T2118 000:728 JLINK_IsHalted()  returns FALSE (0000ms, 0470ms total)
T2118 000:729 JLINK_IsHalted()  returns FALSE (0000ms, 0470ms total)
T2118 000:730 JLINK_IsHalted()  returns FALSE (0000ms, 0470ms total)
T2118 000:731 JLINK_IsHalted()  returns FALSE (0000ms, 0470ms total)
T2118 000:732 JLINK_IsHalted()  returns FALSE (0000ms, 0470ms total)
T2118 000:733 JLINK_IsHalted()  returns FALSE (0000ms, 0470ms total)
T2118 000:734 JLINK_IsHalted()  returns FALSE (0000ms, 0470ms total)
T2118 000:735 JLINK_IsHalted()  returns FALSE (0000ms, 0470ms total)
T2118 000:736 JLINK_IsHalted() -- CPU_ReadMem(2 bytes @ 0x20000000)  returns TRUE (0005ms, 0475ms total)
T2118 000:741 JLINK_ReadReg(R15 (PC))  returns 0x20000000 (0000ms, 0470ms total)
T2118 000:741 JLINK_ClrBPEx(BPHandle = 0x00000007)  returns 0x00 (0001ms, 0471ms total)
T2118 000:742 JLINK_ReadReg(R0)  returns 0x00000000 (0000ms, 0471ms total)
T2118 000:742 JLINK_WriteReg(R0, 0x08000C00)  returns 0x00 (0000ms, 0471ms total)
T2118 000:742 JLINK_WriteReg(R1, 0x00000400)  returns 0x00 (0000ms, 0471ms total)
T2118 000:742 JLINK_WriteReg(R2, 0x000000FF)  returns 0x00 (0000ms, 0471ms total)
T2118 000:742 JLINK_WriteReg(R3, 0x00000000)  returns 0x00 (0000ms, 0471ms total)
T2118 000:742 JLINK_WriteReg(R4, 0x00000000)  returns 0x00 (0000ms, 0471ms total)
T2118 000:742 JLINK_WriteReg(R5, 0x00000000)  returns 0x00 (0000ms, 0471ms total)
T2118 000:742 JLINK_WriteReg(R6, 0x00000000)  returns 0x00 (0000ms, 0471ms total)
T2118 000:742 JLINK_WriteReg(R7, 0x00000000)  returns 0x00 (0000ms, 0471ms total)
T2118 000:742 JLINK_WriteReg(R8, 0x00000000)  returns 0x00 (0000ms, 0471ms total)
T2118 000:742 JLINK_WriteReg(R9, 0x20000134)  returns 0x00 (0000ms, 0471ms total)
T2118 000:742 JLINK_WriteReg(R10, 0x00000000)  returns 0x00 (0000ms, 0471ms total)
T2118 000:742 JLINK_WriteReg(R11, 0x00000000)  returns 0x00 (0000ms, 0471ms total)
T2118 000:742 JLINK_WriteReg(R12, 0x00000000)  returns 0x00 (0000ms, 0471ms total)
T2118 000:742 JLINK_WriteReg(R13 (SP), 0x20001000)  returns 0x00 (0000ms, 0471ms total)
T2118 000:742 JLINK_WriteReg(R14, 0x20000001)  returns 0x00 (0000ms, 0471ms total)
T2118 000:742 JLINK_WriteReg(R15 (PC), 0x20000020)  returns 0x00 (0000ms, 0471ms total)
T2118 000:742 JLINK_WriteReg(XPSR, 0x01000000)  returns 0x00 (0000ms, 0471ms total)
T2118 000:742 JLINK_WriteReg(MSP, 0x20001000)  returns 0x00 (0000ms, 0471ms total)
T2118 000:742 JLINK_WriteReg(PSP, 0x20001000)  returns 0x00 (0000ms, 0471ms total)
T2118 000:742 JLINK_WriteReg(CFBP, 0x00000000)  returns 0x00 (0000ms, 0471ms total)
T2118 000:742 JLINK_SetBPEx(Addr = 0x20000000, Type = 0xFFFFFFF2)  returns 0x00000008 (0000ms, 0471ms total)
T2118 000:742 JLINK_Go() (0005ms, 0476ms total)
T2118 000:747 JLINK_IsHalted() -- CPU_ReadMem(2 bytes @ 0x20000000)  returns TRUE (0005ms, 0481ms total)
T2118 000:752 JLINK_ReadReg(R15 (PC))  returns 0x20000000 (0001ms, 0477ms total)
T2118 000:753 JLINK_ClrBPEx(BPHandle = 0x00000008)  returns 0x00 (0000ms, 0477ms total)
T2118 000:753 JLINK_ReadReg(R0)  returns 0x00000001 (0000ms, 0477ms total)
T2118 000:753 JLINK_WriteReg(R0, 0x08000C00)  returns 0x00 (0000ms, 0477ms total)
T2118 000:753 JLINK_WriteReg(R1, 0x00000400)  returns 0x00 (0000ms, 0477ms total)
T2118 000:753 JLINK_WriteReg(R2, 0x000000FF)  returns 0x00 (0000ms, 0477ms total)
T2118 000:753 JLINK_WriteReg(R3, 0x00000000)  returns 0x00 (0000ms, 0477ms total)
T2118 000:753 JLINK_WriteReg(R4, 0x00000000)  returns 0x00 (0000ms, 0477ms total)
T2118 000:753 JLINK_WriteReg(R5, 0x00000000)  returns 0x00 (0000ms, 0477ms total)
T2118 000:753 JLINK_WriteReg(R6, 0x00000000)  returns 0x00 (0000ms, 0477ms total)
T2118 000:753 JLINK_WriteReg(R7, 0x00000000)  returns 0x00 (0000ms, 0477ms total)
T2118 000:753 JLINK_WriteReg(R8, 0x00000000)  returns 0x00 (0000ms, 0477ms total)
T2118 000:753 JLINK_WriteReg(R9, 0x20000134)  returns 0x00 (0000ms, 0477ms total)
T2118 000:753 JLINK_WriteReg(R10, 0x00000000)  returns 0x00 (0000ms, 0477ms total)
T2118 000:753 JLINK_WriteReg(R11, 0x00000000)  returns 0x00 (0000ms, 0477ms total)
T2118 000:753 JLINK_WriteReg(R12, 0x00000000)  returns 0x00 (0000ms, 0477ms total)
T2118 000:753 JLINK_WriteReg(R13 (SP), 0x20001000)  returns 0x00 (0000ms, 0477ms total)
T2118 000:753 JLINK_WriteReg(R14, 0x20000001)  returns 0x00 (0000ms, 0477ms total)
T2118 000:753 JLINK_WriteReg(R15 (PC), 0x200000A8)  returns 0x00 (0000ms, 0477ms total)
T2118 000:753 JLINK_WriteReg(XPSR, 0x01000000)  returns 0x00 (0000ms, 0477ms total)
T2118 000:753 JLINK_WriteReg(MSP, 0x20001000)  returns 0x00 (0000ms, 0477ms total)
T2118 000:753 JLINK_WriteReg(PSP, 0x20001000)  returns 0x00 (0000ms, 0477ms total)
T2118 000:753 JLINK_WriteReg(CFBP, 0x00000000)  returns 0x00 (0000ms, 0477ms total)
T2118 000:753 JLINK_SetBPEx(Addr = 0x20000000, Type = 0xFFFFFFF2)  returns 0x00000009 (0000ms, 0477ms total)
T2118 000:753 JLINK_Go() (0004ms, 0481ms total)
T2118 000:757 JLINK_IsHalted()  returns FALSE (0002ms, 0483ms total)
T2118 000:761 JLINK_IsHalted()  returns FALSE (0001ms, 0482ms total)
T2118 000:763 JLINK_IsHalted()  returns FALSE (0001ms, 0482ms total)
T2118 000:765 JLINK_IsHalted()  returns FALSE (0001ms, 0482ms total)
T2118 000:767 JLINK_IsHalted()  returns FALSE (0001ms, 0482ms total)
T2118 000:769 JLINK_IsHalted()  returns FALSE (0002ms, 0483ms total)
T2118 000:772 JLINK_IsHalted()  returns FALSE (0001ms, 0482ms total)
T2118 000:774 JLINK_IsHalted()  returns FALSE (0002ms, 0483ms total)
T2118 000:777 JLINK_IsHalted()  returns FALSE (0002ms, 0483ms total)
T2118 000:780 JLINK_IsHalted()  returns FALSE (0001ms, 0482ms total)
T2118 000:782 JLINK_IsHalted()  returns FALSE (0002ms, 0483ms total)
T2118 000:785 JLINK_IsHalted()  returns FALSE (0001ms, 0482ms total)
T2118 000:787 JLINK_IsHalted()  returns FALSE (0001ms, 0482ms total)
T2118 000:789 JLINK_IsHalted()  returns FALSE (0001ms, 0482ms total)
T2118 000:791 JLINK_IsHalted()  returns FALSE (0002ms, 0483ms total)
T2118 000:794 JLINK_IsHalted()  returns FALSE (0002ms, 0483ms total)
T2118 000:797 JLINK_IsHalted()  returns FALSE (0002ms, 0483ms total)
T2118 000:800 JLINK_IsHalted()  returns FALSE (0001ms, 0482ms total)
T2118 000:802 JLINK_IsHalted() -- CPU_ReadMem(2 bytes @ 0x20000000)  returns TRUE (0009ms, 0490ms total)
T2118 000:811 JLINK_ReadReg(R15 (PC))  returns 0x20000000 (0000ms, 0481ms total)
T2118 000:811 JLINK_ClrBPEx(BPHandle = 0x00000009)  returns 0x00 (0000ms, 0481ms total)
T2118 000:811 JLINK_ReadReg(R0)  returns 0x00000000 (0000ms, 0481ms total)
T2118 000:811 JLINK_WriteReg(R0, 0x08001000)  returns 0x00 (0000ms, 0481ms total)
T2118 000:811 JLINK_WriteReg(R1, 0x00000400)  returns 0x00 (0000ms, 0481ms total)
T2118 000:811 JLINK_WriteReg(R2, 0x000000FF)  returns 0x00 (0000ms, 0481ms total)
T2118 000:811 JLINK_WriteReg(R3, 0x00000000)  returns 0x00 (0000ms, 0481ms total)
T2118 000:811 JLINK_WriteReg(R4, 0x00000000)  returns 0x00 (0000ms, 0481ms total)
T2118 000:811 JLINK_WriteReg(R5, 0x00000000)  returns 0x00 (0000ms, 0481ms total)
T2118 000:811 JLINK_WriteReg(R6, 0x00000000)  returns 0x00 (0000ms, 0481ms total)
T2118 000:811 JLINK_WriteReg(R7, 0x00000000)  returns 0x00 (0000ms, 0481ms total)
T2118 000:811 JLINK_WriteReg(R8, 0x00000000)  returns 0x00 (0000ms, 0481ms total)
T2118 000:811 JLINK_WriteReg(R9, 0x20000134)  returns 0x00 (0000ms, 0481ms total)
T2118 000:811 JLINK_WriteReg(R10, 0x00000000)  returns 0x00 (0000ms, 0481ms total)
T2118 000:811 JLINK_WriteReg(R11, 0x00000000)  returns 0x00 (0000ms, 0481ms total)
T2118 000:811 JLINK_WriteReg(R12, 0x00000000)  returns 0x00 (0000ms, 0481ms total)
T2118 000:811 JLINK_WriteReg(R13 (SP), 0x20001000)  returns 0x00 (0000ms, 0481ms total)
T2118 000:811 JLINK_WriteReg(R14, 0x20000001)  returns 0x00 (0000ms, 0481ms total)
T2118 000:811 JLINK_WriteReg(R15 (PC), 0x20000020)  returns 0x00 (0000ms, 0481ms total)
T2118 000:811 JLINK_WriteReg(XPSR, 0x01000000)  returns 0x00 (0000ms, 0481ms total)
T2118 000:811 JLINK_WriteReg(MSP, 0x20001000)  returns 0x00 (0000ms, 0481ms total)
T2118 000:811 JLINK_WriteReg(PSP, 0x20001000)  returns 0x00 (0000ms, 0481ms total)
T2118 000:811 JLINK_WriteReg(CFBP, 0x00000000)  returns 0x00 (0000ms, 0481ms total)
T2118 000:811 JLINK_SetBPEx(Addr = 0x20000000, Type = 0xFFFFFFF2)  returns 0x0000000A (0000ms, 0481ms total)
T2118 000:811 JLINK_Go() (0004ms, 0485ms total)
T2118 000:815 JLINK_IsHalted() -- CPU_ReadMem(2 bytes @ 0x20000000)  returns TRUE (0009ms, 0494ms total)
T2118 000:824 JLINK_ReadReg(R15 (PC))  returns 0x20000000 (0000ms, 0485ms total)
T2118 000:824 JLINK_ClrBPEx(BPHandle = 0x0000000A)  returns 0x00 (0000ms, 0485ms total)
T2118 000:824 JLINK_ReadReg(R0)  returns 0x00000001 (0000ms, 0485ms total)
T2118 000:824 JLINK_WriteReg(R0, 0x08001000)  returns 0x00 (0000ms, 0485ms total)
T2118 000:824 JLINK_WriteReg(R1, 0x00000400)  returns 0x00 (0000ms, 0485ms total)
T2118 000:824 JLINK_WriteReg(R2, 0x000000FF)  returns 0x00 (0000ms, 0485ms total)
T2118 000:824 JLINK_WriteReg(R3, 0x00000000)  returns 0x00 (0000ms, 0485ms total)
T2118 000:824 JLINK_WriteReg(R4, 0x00000000)  returns 0x00 (0000ms, 0485ms total)
T2118 000:824 JLINK_WriteReg(R5, 0x00000000)  returns 0x00 (0000ms, 0485ms total)
T2118 000:824 JLINK_WriteReg(R6, 0x00000000)  returns 0x00 (0000ms, 0485ms total)
T2118 000:824 JLINK_WriteReg(R7, 0x00000000)  returns 0x00 (0000ms, 0485ms total)
T2118 000:824 JLINK_WriteReg(R8, 0x00000000)  returns 0x00 (0000ms, 0485ms total)
T2118 000:824 JLINK_WriteReg(R9, 0x20000134)  returns 0x00 (0000ms, 0485ms total)
T2118 000:824 JLINK_WriteReg(R10, 0x00000000)  returns 0x00 (0000ms, 0485ms total)
T2118 000:824 JLINK_WriteReg(R11, 0x00000000)  returns 0x00 (0000ms, 0485ms total)
T2118 000:824 JLINK_WriteReg(R12, 0x00000000)  returns 0x00 (0000ms, 0485ms total)
T2118 000:824 JLINK_WriteReg(R13 (SP), 0x20001000)  returns 0x00 (0000ms, 0485ms total)
T2118 000:824 JLINK_WriteReg(R14, 0x20000001)  returns 0x00 (0000ms, 0485ms total)
T2118 000:824 JLINK_WriteReg(R15 (PC), 0x200000A8)  returns 0x00 (0000ms, 0485ms total)
T2118 000:824 JLINK_WriteReg(XPSR, 0x01000000)  returns 0x00 (0000ms, 0485ms total)
T2118 000:824 JLINK_WriteReg(MSP, 0x20001000)  returns 0x00 (0000ms, 0485ms total)
T2118 000:824 JLINK_WriteReg(PSP, 0x20001000)  returns 0x00 (0000ms, 0485ms total)
T2118 000:824 JLINK_WriteReg(CFBP, 0x00000000)  returns 0x00 (0000ms, 0485ms total)
T2118 000:824 JLINK_SetBPEx(Addr = 0x20000000, Type = 0xFFFFFFF2)  returns 0x0000000B (0000ms, 0485ms total)
T2118 000:824 JLINK_Go() (0005ms, 0490ms total)
T2118 000:829 JLINK_IsHalted()  returns FALSE (0002ms, 0492ms total)
T2118 000:834 JLINK_IsHalted()  returns FALSE (0002ms, 0492ms total)
T2118 000:837 JLINK_IsHalted()  returns FALSE (0002ms, 0492ms total)
T2118 000:840 JLINK_IsHalted()  returns FALSE (0002ms, 0492ms total)
T2118 000:843 JLINK_IsHalted()  returns FALSE (0001ms, 0491ms total)
T2118 000:845 JLINK_IsHalted()  returns FALSE (0002ms, 0492ms total)
T2118 000:850 JLINK_IsHalted()  returns FALSE (0001ms, 0491ms total)
T2118 000:852 JLINK_IsHalted()  returns FALSE (0001ms, 0491ms total)
T2118 000:854 JLINK_IsHalted()  returns FALSE (0002ms, 0492ms total)
T2118 000:857 JLINK_IsHalted()  returns FALSE (0002ms, 0492ms total)
T2118 000:860 JLINK_IsHalted()  returns FALSE (0002ms, 0492ms total)
T2118 000:863 JLINK_IsHalted()  returns FALSE (0001ms, 0491ms total)
T2118 000:865 JLINK_IsHalted()  returns FALSE (0001ms, 0491ms total)
T2118 000:867 JLINK_IsHalted()  returns FALSE (0002ms, 0492ms total)
T2118 000:870 JLINK_IsHalted()  returns FALSE (0002ms, 0492ms total)
T2118 000:873 JLINK_IsHalted() -- CPU_ReadMem(2 bytes @ 0x20000000)  returns TRUE (0008ms, 0498ms total)
T2118 000:881 JLINK_ReadReg(R15 (PC))  returns 0x20000000 (0000ms, 0490ms total)
T2118 000:881 JLINK_ClrBPEx(BPHandle = 0x0000000B)  returns 0x00 (0000ms, 0490ms total)
T2118 000:881 JLINK_ReadReg(R0)  returns 0x00000000 (0000ms, 0490ms total)
T2118 000:881 JLINK_WriteReg(R0, 0x08001400)  returns 0x00 (0000ms, 0490ms total)
T2118 000:881 JLINK_WriteReg(R1, 0x00000400)  returns 0x00 (0000ms, 0490ms total)
T2118 000:881 JLINK_WriteReg(R2, 0x000000FF)  returns 0x00 (0000ms, 0490ms total)
T2118 000:881 JLINK_WriteReg(R3, 0x00000000)  returns 0x00 (0000ms, 0490ms total)
T2118 000:881 JLINK_WriteReg(R4, 0x00000000)  returns 0x00 (0000ms, 0490ms total)
T2118 000:881 JLINK_WriteReg(R5, 0x00000000)  returns 0x00 (0000ms, 0490ms total)
T2118 000:881 JLINK_WriteReg(R6, 0x00000000)  returns 0x00 (0000ms, 0490ms total)
T2118 000:881 JLINK_WriteReg(R7, 0x00000000)  returns 0x00 (0000ms, 0490ms total)
T2118 000:881 JLINK_WriteReg(R8, 0x00000000)  returns 0x00 (0000ms, 0490ms total)
T2118 000:881 JLINK_WriteReg(R9, 0x20000134)  returns 0x00 (0000ms, 0490ms total)
T2118 000:881 JLINK_WriteReg(R10, 0x00000000)  returns 0x00 (0000ms, 0490ms total)
T2118 000:881 JLINK_WriteReg(R11, 0x00000000)  returns 0x00 (0000ms, 0490ms total)
T2118 000:881 JLINK_WriteReg(R12, 0x00000000)  returns 0x00 (0000ms, 0490ms total)
T2118 000:881 JLINK_WriteReg(R13 (SP), 0x20001000)  returns 0x00 (0000ms, 0490ms total)
T2118 000:881 JLINK_WriteReg(R14, 0x20000001)  returns 0x00 (0000ms, 0490ms total)
T2118 000:881 JLINK_WriteReg(R15 (PC), 0x20000020)  returns 0x00 (0000ms, 0490ms total)
T2118 000:881 JLINK_WriteReg(XPSR, 0x01000000)  returns 0x00 (0000ms, 0490ms total)
T2118 000:881 JLINK_WriteReg(MSP, 0x20001000)  returns 0x00 (0000ms, 0490ms total)
T2118 000:881 JLINK_WriteReg(PSP, 0x20001000)  returns 0x00 (0000ms, 0490ms total)
T2118 000:881 JLINK_WriteReg(CFBP, 0x00000000)  returns 0x00 (0000ms, 0490ms total)
T2118 000:881 JLINK_SetBPEx(Addr = 0x20000000, Type = 0xFFFFFFF2)  returns 0x0000000C (0000ms, 0490ms total)
T2118 000:881 JLINK_Go() (0003ms, 0493ms total)
T2118 000:884 JLINK_IsHalted() -- CPU_ReadMem(2 bytes @ 0x20000000)  returns TRUE (0007ms, 0500ms total)
T2118 000:891 JLINK_ReadReg(R15 (PC))  returns 0x20000000 (0000ms, 0493ms total)
T2118 000:891 JLINK_ClrBPEx(BPHandle = 0x0000000C)  returns 0x00 (0000ms, 0493ms total)
T2118 000:891 JLINK_ReadReg(R0)  returns 0x00000001 (0000ms, 0493ms total)
T2118 000:891 JLINK_WriteReg(R0, 0x08001400)  returns 0x00 (0000ms, 0493ms total)
T2118 000:891 JLINK_WriteReg(R1, 0x00000400)  returns 0x00 (0000ms, 0493ms total)
T2118 000:891 JLINK_WriteReg(R2, 0x000000FF)  returns 0x00 (0000ms, 0493ms total)
T2118 000:891 JLINK_WriteReg(R3, 0x00000000)  returns 0x00 (0000ms, 0493ms total)
T2118 000:891 JLINK_WriteReg(R4, 0x00000000)  returns 0x00 (0000ms, 0493ms total)
T2118 000:891 JLINK_WriteReg(R5, 0x00000000)  returns 0x00 (0000ms, 0493ms total)
T2118 000:891 JLINK_WriteReg(R6, 0x00000000)  returns 0x00 (0000ms, 0493ms total)
T2118 000:891 JLINK_WriteReg(R7, 0x00000000)  returns 0x00 (0000ms, 0493ms total)
T2118 000:891 JLINK_WriteReg(R8, 0x00000000)  returns 0x00 (0000ms, 0493ms total)
T2118 000:891 JLINK_WriteReg(R9, 0x20000134)  returns 0x00 (0000ms, 0493ms total)
T2118 000:891 JLINK_WriteReg(R10, 0x00000000)  returns 0x00 (0000ms, 0493ms total)
T2118 000:891 JLINK_WriteReg(R11, 0x00000000)  returns 0x00 (0000ms, 0493ms total)
T2118 000:891 JLINK_WriteReg(R12, 0x00000000)  returns 0x00 (0000ms, 0493ms total)
T2118 000:891 JLINK_WriteReg(R13 (SP), 0x20001000)  returns 0x00 (0000ms, 0493ms total)
T2118 000:891 JLINK_WriteReg(R14, 0x20000001)  returns 0x00 (0000ms, 0493ms total)
T2118 000:891 JLINK_WriteReg(R15 (PC), 0x200000A8)  returns 0x00 (0000ms, 0493ms total)
T2118 000:891 JLINK_WriteReg(XPSR, 0x01000000)  returns 0x00 (0000ms, 0493ms total)
T2118 000:891 JLINK_WriteReg(MSP, 0x20001000)  returns 0x00 (0000ms, 0493ms total)
T2118 000:891 JLINK_WriteReg(PSP, 0x20001000)  returns 0x00 (0000ms, 0493ms total)
T2118 000:891 JLINK_WriteReg(CFBP, 0x00000000)  returns 0x00 (0000ms, 0493ms total)
T2118 000:891 JLINK_SetBPEx(Addr = 0x20000000, Type = 0xFFFFFFF2)  returns 0x0000000D (0000ms, 0493ms total)
T2118 000:891 JLINK_Go() (0004ms, 0497ms total)
T2118 000:895 JLINK_IsHalted()  returns FALSE (0002ms, 0499ms total)
T2118 000:898 JLINK_IsHalted()  returns FALSE (0002ms, 0499ms total)
T2118 000:901 JLINK_IsHalted()  returns FALSE (0002ms, 0499ms total)
T2118 000:904 JLINK_IsHalted()  returns FALSE (0002ms, 0499ms total)
T2118 000:907 JLINK_IsHalted()  returns FALSE (0002ms, 0499ms total)
T2118 000:910 JLINK_IsHalted()  returns FALSE (0001ms, 0498ms total)
T2118 000:913 JLINK_IsHalted()  returns FALSE (0001ms, 0498ms total)
T2118 000:915 JLINK_IsHalted()  returns FALSE (0001ms, 0498ms total)
T2118 000:917 JLINK_IsHalted()  returns FALSE (0002ms, 0499ms total)
T2118 000:920 JLINK_IsHalted()  returns FALSE (0002ms, 0499ms total)
T2118 000:923 JLINK_IsHalted()  returns FALSE (0002ms, 0499ms total)
T2118 000:926 JLINK_IsHalted()  returns FALSE (0001ms, 0498ms total)
T2118 000:928 JLINK_IsHalted()  returns FALSE (0001ms, 0498ms total)
T2118 000:930 JLINK_IsHalted()  returns FALSE (0002ms, 0499ms total)
T2118 000:933 JLINK_IsHalted()  returns FALSE (0002ms, 0499ms total)
T2118 000:936 JLINK_IsHalted()  returns FALSE (0002ms, 0499ms total)
T2118 000:939 JLINK_IsHalted()  returns FALSE (0001ms, 0498ms total)
T2118 000:941 JLINK_IsHalted() -- CPU_ReadMem(2 bytes @ 0x20000000)  returns TRUE (0007ms, 0504ms total)
T2118 000:948 JLINK_ReadReg(R15 (PC))  returns 0x20000000 (0000ms, 0497ms total)
T2118 000:948 JLINK_ClrBPEx(BPHandle = 0x0000000D)  returns 0x00 (0000ms, 0497ms total)
T2118 000:948 JLINK_ReadReg(R0)  returns 0x00000000 (0000ms, 0497ms total)
T2118 000:948 JLINK_WriteReg(R0, 0x08001800)  returns 0x00 (0000ms, 0497ms total)
T2118 000:948 JLINK_WriteReg(R1, 0x00000400)  returns 0x00 (0000ms, 0497ms total)
T2118 000:948 JLINK_WriteReg(R2, 0x000000FF)  returns 0x00 (0000ms, 0497ms total)
T2118 000:948 JLINK_WriteReg(R3, 0x00000000)  returns 0x00 (0000ms, 0497ms total)
T2118 000:948 JLINK_WriteReg(R4, 0x00000000)  returns 0x00 (0000ms, 0497ms total)
T2118 000:948 JLINK_WriteReg(R5, 0x00000000)  returns 0x00 (0000ms, 0497ms total)
T2118 000:948 JLINK_WriteReg(R6, 0x00000000)  returns 0x00 (0000ms, 0497ms total)
T2118 000:948 JLINK_WriteReg(R7, 0x00000000)  returns 0x00 (0000ms, 0497ms total)
T2118 000:948 JLINK_WriteReg(R8, 0x00000000)  returns 0x00 (0000ms, 0497ms total)
T2118 000:948 JLINK_WriteReg(R9, 0x20000134)  returns 0x00 (0000ms, 0497ms total)
T2118 000:948 JLINK_WriteReg(R10, 0x00000000)  returns 0x00 (0000ms, 0497ms total)
T2118 000:948 JLINK_WriteReg(R11, 0x00000000)  returns 0x00 (0000ms, 0497ms total)
T2118 000:948 JLINK_WriteReg(R12, 0x00000000)  returns 0x00 (0000ms, 0497ms total)
T2118 000:948 JLINK_WriteReg(R13 (SP), 0x20001000)  returns 0x00 (0000ms, 0497ms total)
T2118 000:948 JLINK_WriteReg(R14, 0x20000001)  returns 0x00 (0000ms, 0497ms total)
T2118 000:948 JLINK_WriteReg(R15 (PC), 0x20000020)  returns 0x00 (0000ms, 0497ms total)
T2118 000:948 JLINK_WriteReg(XPSR, 0x01000000)  returns 0x00 (0000ms, 0497ms total)
T2118 000:948 JLINK_WriteReg(MSP, 0x20001000)  returns 0x00 (0000ms, 0497ms total)
T2118 000:948 JLINK_WriteReg(PSP, 0x20001000)  returns 0x00 (0000ms, 0497ms total)
T2118 000:948 JLINK_WriteReg(CFBP, 0x00000000)  returns 0x00 (0000ms, 0497ms total)
T2118 000:948 JLINK_SetBPEx(Addr = 0x20000000, Type = 0xFFFFFFF2)  returns 0x0000000E (0000ms, 0497ms total)
T2118 000:948 JLINK_Go() (0004ms, 0501ms total)
T2118 000:952 JLINK_IsHalted() -- CPU_ReadMem(2 bytes @ 0x20000000)  returns TRUE (0009ms, 0510ms total)
T2118 000:961 JLINK_ReadReg(R15 (PC))  returns 0x20000000 (0000ms, 0501ms total)
T2118 000:961 JLINK_ClrBPEx(BPHandle = 0x0000000E)  returns 0x00 (0000ms, 0501ms total)
T2118 000:961 JLINK_ReadReg(R0)  returns 0x00000001 (0000ms, 0501ms total)
T2118 000:961 JLINK_WriteReg(R0, 0x08001800)  returns 0x00 (0000ms, 0501ms total)
T2118 000:961 JLINK_WriteReg(R1, 0x00000400)  returns 0x00 (0000ms, 0501ms total)
T2118 000:961 JLINK_WriteReg(R2, 0x000000FF)  returns 0x00 (0000ms, 0501ms total)
T2118 000:961 JLINK_WriteReg(R3, 0x00000000)  returns 0x00 (0000ms, 0501ms total)
T2118 000:961 JLINK_WriteReg(R4, 0x00000000)  returns 0x00 (0000ms, 0501ms total)
T2118 000:961 JLINK_WriteReg(R5, 0x00000000)  returns 0x00 (0000ms, 0501ms total)
T2118 000:961 JLINK_WriteReg(R6, 0x00000000)  returns 0x00 (0000ms, 0501ms total)
T2118 000:961 JLINK_WriteReg(R7, 0x00000000)  returns 0x00 (0000ms, 0501ms total)
T2118 000:961 JLINK_WriteReg(R8, 0x00000000)  returns 0x00 (0000ms, 0501ms total)
T2118 000:961 JLINK_WriteReg(R9, 0x20000134)  returns 0x00 (0000ms, 0501ms total)
T2118 000:961 JLINK_WriteReg(R10, 0x00000000)  returns 0x00 (0000ms, 0501ms total)
T2118 000:961 JLINK_WriteReg(R11, 0x00000000)  returns 0x00 (0000ms, 0501ms total)
T2118 000:961 JLINK_WriteReg(R12, 0x00000000)  returns 0x00 (0000ms, 0501ms total)
T2118 000:961 JLINK_WriteReg(R13 (SP), 0x20001000)  returns 0x00 (0000ms, 0501ms total)
T2118 000:961 JLINK_WriteReg(R14, 0x20000001)  returns 0x00 (0000ms, 0501ms total)
T2118 000:961 JLINK_WriteReg(R15 (PC), 0x200000A8)  returns 0x00 (0000ms, 0501ms total)
T2118 000:961 JLINK_WriteReg(XPSR, 0x01000000)  returns 0x00 (0000ms, 0501ms total)
T2118 000:961 JLINK_WriteReg(MSP, 0x20001000)  returns 0x00 (0000ms, 0501ms total)
T2118 000:961 JLINK_WriteReg(PSP, 0x20001000)  returns 0x00 (0000ms, 0501ms total)
T2118 000:961 JLINK_WriteReg(CFBP, 0x00000000)  returns 0x00 (0000ms, 0501ms total)
T2118 000:961 JLINK_SetBPEx(Addr = 0x20000000, Type = 0xFFFFFFF2)  returns 0x0000000F (0000ms, 0501ms total)
T2118 000:961 JLINK_Go() (0005ms, 0506ms total)
T2118 000:966 JLINK_IsHalted()  returns FALSE (0001ms, 0507ms total)
T2118 000:969 JLINK_IsHalted()  returns FALSE (0001ms, 0507ms total)
T2118 000:971 JLINK_IsHalted()  returns FALSE (0002ms, 0508ms total)
T2118 000:974 JLINK_IsHalted()  returns FALSE (0001ms, 0507ms total)
T2118 000:976 JLINK_IsHalted()  returns FALSE (0002ms, 0508ms total)
T2118 000:979 JLINK_IsHalted()  returns FALSE (0002ms, 0508ms total)
T2118 000:982 JLINK_IsHalted()  returns FALSE (0002ms, 0508ms total)
T2118 000:985 JLINK_IsHalted()  returns FALSE (0002ms, 0508ms total)
T2118 000:988 JLINK_IsHalted()  returns FALSE (0001ms, 0507ms total)
T2118 000:990 JLINK_IsHalted()  returns FALSE (0001ms, 0507ms total)
T2118 000:992 JLINK_IsHalted()  returns FALSE (0002ms, 0508ms total)
T2118 000:995 JLINK_IsHalted()  returns FALSE (0002ms, 0508ms total)
T2118 000:998 JLINK_IsHalted()  returns FALSE (0001ms, 0507ms total)
T2118 001:000 JLINK_IsHalted()  returns FALSE (0001ms, 0507ms total)
T2118 001:002 JLINK_IsHalted()  returns FALSE (0003ms, 0509ms total)
T2118 001:006 JLINK_IsHalted()  returns FALSE (0001ms, 0507ms total)
T2118 001:008 JLINK_IsHalted()  returns FALSE (0002ms, 0508ms total)
T2118 001:011 JLINK_IsHalted() -- CPU_ReadMem(2 bytes @ 0x20000000)  returns TRUE (0007ms, 0513ms total)
T2118 001:018 JLINK_ReadReg(R15 (PC))  returns 0x20000000 (0000ms, 0506ms total)
T2118 001:018 JLINK_ClrBPEx(BPHandle = 0x0000000F)  returns 0x00 (0001ms, 0507ms total)
T2118 001:019 JLINK_ReadReg(R0)  returns 0x00000000 (0000ms, 0507ms total)
T2118 001:019 JLINK_WriteReg(R0, 0x08001C00)  returns 0x00 (0000ms, 0507ms total)
T2118 001:019 JLINK_WriteReg(R1, 0x00000400)  returns 0x00 (0000ms, 0507ms total)
T2118 001:019 JLINK_WriteReg(R2, 0x000000FF)  returns 0x00 (0000ms, 0507ms total)
T2118 001:019 JLINK_WriteReg(R3, 0x00000000)  returns 0x00 (0000ms, 0507ms total)
T2118 001:019 JLINK_WriteReg(R4, 0x00000000)  returns 0x00 (0000ms, 0507ms total)
T2118 001:019 JLINK_WriteReg(R5, 0x00000000)  returns 0x00 (0000ms, 0507ms total)
T2118 001:019 JLINK_WriteReg(R6, 0x00000000)  returns 0x00 (0000ms, 0507ms total)
T2118 001:019 JLINK_WriteReg(R7, 0x00000000)  returns 0x00 (0000ms, 0507ms total)
T2118 001:019 JLINK_WriteReg(R8, 0x00000000)  returns 0x00 (0000ms, 0507ms total)
T2118 001:019 JLINK_WriteReg(R9, 0x20000134)  returns 0x00 (0000ms, 0507ms total)
T2118 001:019 JLINK_WriteReg(R10, 0x00000000)  returns 0x00 (0000ms, 0507ms total)
T2118 001:019 JLINK_WriteReg(R11, 0x00000000)  returns 0x00 (0000ms, 0507ms total)
T2118 001:019 JLINK_WriteReg(R12, 0x00000000)  returns 0x00 (0000ms, 0507ms total)
T2118 001:019 JLINK_WriteReg(R13 (SP), 0x20001000)  returns 0x00 (0000ms, 0507ms total)
T2118 001:019 JLINK_WriteReg(R14, 0x20000001)  returns 0x00 (0000ms, 0507ms total)
T2118 001:019 JLINK_WriteReg(R15 (PC), 0x20000020)  returns 0x00 (0000ms, 0507ms total)
T2118 001:019 JLINK_WriteReg(XPSR, 0x01000000)  returns 0x00 (0000ms, 0507ms total)
T2118 001:019 JLINK_WriteReg(MSP, 0x20001000)  returns 0x00 (0000ms, 0507ms total)
T2118 001:019 JLINK_WriteReg(PSP, 0x20001000)  returns 0x00 (0000ms, 0507ms total)
